TESTE,ATPDraw,1999
3,3A,0D
1,V,A,LT1,V,1.,0.0,0.0,-11267.653,11267.653,0.0,0.0,P
2,I,A,LT1,A,0.01,0.0,0.0,-11267.6641,11267.6641,0.0,0.0,P
3,RESERVA,A,LT1,V,1.,0.0,0.0,0.0,0.0,0.0,0.0,P
60.
1
1920.,9600
12/11/2025, 20:28:51.003000
12/11/2025, 20:28:51.253000
ASCII
1.
1,521,11268,11268,0
2,1042,11051,11051,0
3,1562,10410,10410,0
4,2083,9369,9369,0
5,2604,7967,7967,0
6,3125,6260,6260,0
7,3646,4312,4312,0
8,4167,2198,2198,0
9,4688,0,0,0
10,5208,-2198,-2198,0
11,5729,-4312,-4312,0
12,6250,-6260,-6260,0
13,6771,-7967,-7967,0
14,7292,-9369,-9369,0
15,7812,-10410,-10410,0
16,8333,-11051,-11051,0
17,8854,-11268,-11268,0
18,9375,-11051,-11051,0
19,9896,-10410,-10410,0
20,10417,-9369,-9369,0
21,10938,-7967,-7967,0
22,11458,-6260,-6260,0
23,11979,-4312,-4312,0
24,12500,-2198,-2198,0
25,13021,0,0,0
26,13542,2198,2198,0
27,14062,4312,4312,0
28,14583,6260,6260,0
29,15104,7967,7967,0
30,15625,9369,9369,0
31,16146,10410,10410,0
32,16667,11051,11051,0
33,17188,11268,11268,0
34,17708,11051,11051,0
35,18229,10410,10410,0
36,18750,9369,9369,0
37,19271,7967,7967,0
38,19792,6260,6260,0
39,20312,4312,4312,0
40,20833,2198,2198,0
41,21354,0,0,0
42,21875,-2198,-2198,0
43,22396,-4312,-4312,0
44,22917,-6260,-6260,0
45,23438,-7967,-7967,0
46,23958,-9369,-9369,0
47,24479,-10410,-10410,0
48,25000,-11051,-11051,0
49,25521,-11268,-11268,0
50,26042,-11051,-11051,0
51,26562,-10410,-10410,0
52,27083,-9369,-9369,0
53,27604,-7967,-7967,0
54,28125,-6260,-6260,0
55,28646,-4312,-4312,0
56,29167,-2198,-2198,0
57,29688,0,0,0
58,30208,2198,2198,0
59,30729,4312,4312,0
60,31250,6260,6260,0
61,31771,7967,7967,0
62,32292,9369,9369,0
63,32812,10410,10410,0
64,33333,11051,11051,0
65,33854,11268,11268,0
66,34375,11051,11051,0
67,34896,10410,10410,0
68,35417,9369,9369,0
69,35938,7967,7967,0
70,36458,6260,6260,0
71,36979,4312,4312,0
72,37500,2198,2198,0
73,38021,0,0,0
74,38542,-2198,-2198,0
75,39062,-4312,-4312,0
76,39583,-6260,-6260,0
77,40104,-7967,-7967,0
78,40625,-9369,-9369,0
79,41146,-10410,-10410,0
80,41667,-11051,-11051,0
81,42188,-11268,-11268,0
82,42708,-11051,-11051,0
83,43229,-10410,-10410,0
84,43750,-9369,-9369,0
85,44271,-7967,-7967,0
86,44792,-6260,-6260,0
87,45312,-4312,-4312,0
88,45833,-2198,-2198,0
89,46354,0,0,0
90,46875,2198,2198,0
91,47396,4312,4312,0
92,47917,6260,6260,0
93,48438,7967,7967,0
94,48958,9369,9369,0
95,49479,10410,10410,0
96,50000,11051,11051,0
97,50521,11268,11268,0
98,51042,11051,11051,0
99,51562,10410,10410,0
100,52083,9369,9369,0
101,52604,7967,7967,0
102,53125,6260,6260,0
103,53646,4312,4312,0
104,54167,2198,2198,0
105,54688,0,0,0
106,55208,-2198,-2198,0
107,55729,-4312,-4312,0
108,56250,-6260,-6260,0
109,56771,-7967,-7967,0
110,57292,-9369,-9369,0
111,57812,-10410,-10410,0
112,58333,-11051,-11051,0
113,58854,-11268,-11268,0
114,59375,-11051,-11051,0
115,59896,-10410,-10410,0
116,60417,-9369,-9369,0
117,60938,-7967,-7967,0
118,61458,-6260,-6260,0
119,61979,-4312,-4312,0
120,62500,-2198,-2198,0
121,63021,0,0,0
122,63542,2198,2198,0
123,64062,4312,4312,0
124,64583,6260,6260,0
125,65104,7967,7967,0
126,65625,9369,9369,0
127,66146,10410,10410,0
128,66667,11051,11051,0
129,67188,11268,11268,0
130,67708,11051,11051,0
131,68229,10410,10410,0
132,68750,9369,9369,0
133,69271,7967,7967,0
134,69792,6260,6260,0
135,70312,4312,4312,0
136,70833,2198,2198,0
137,71354,0,0,0
138,71875,-2198,-2198,0
139,72396,-4312,-4312,0
140,72917,-6260,-6260,0
141,73438,-7967,-7967,0
142,73958,-9369,-9369,0
143,74479,-10410,-10410,0
144,75000,-11051,-11051,0
145,75521,-11268,-11268,0
146,76042,-11051,-11051,0
147,76562,-10410,-10410,0
148,77083,-9369,-9369,0
149,77604,-7967,-7967,0
150,78125,-6260,-6260,0
151,78646,-4312,-4312,0
152,79167,-2198,-2198,0
153,79688,0,0,0
154,80208,2198,2198,0
155,80729,4312,4312,0
156,81250,6260,6260,0
157,81771,7967,7967,0
158,82292,9369,9369,0
159,82812,10410,10410,0
160,83333,11051,11051,0
161,83854,11268,11268,0
162,84375,11051,11051,0
163,84896,10410,10410,0
164,85417,9369,9369,0
165,85938,7967,7967,0
166,86458,6260,6260,0
167,86979,4312,4312,0
168,87500,2198,2198,0
169,88021,0,0,0
170,88542,-2198,-2198,0
171,89062,-4312,-4312,0
172,89583,-6260,-6260,0
173,90104,-7967,-7967,0
174,90625,-9369,-9369,0
175,91146,-10410,-10410,0
176,91667,-11051,-11051,0
177,92188,-11268,-11268,0
178,92708,-11051,-11051,0
179,93229,-10410,-10410,0
180,93750,-9369,-9369,0
181,94271,-7967,-7967,0
182,94792,-6260,-6260,0
183,95312,-4312,-4312,0
184,95833,-2198,-2198,0
185,96354,0,0,0
186,96875,2198,2198,0
187,97396,4312,4312,0
188,97917,6260,6260,0
189,98438,7967,7967,0
190,98958,9369,9369,0
191,99479,10410,10410,0
192,100000,11051,11051,0
193,100521,11268,11268,0
194,101042,11051,0,0
195,101562,10410,0,0
196,102083,9369,0,0
197,102604,7967,0,0
198,103125,6260,0,0
199,103646,4312,0,0
200,104167,2198,0,0
201,104688,0,0,0
202,105208,-2198,0,0
203,105729,-4312,0,0
204,106250,-6260,0,0
205,106771,-7967,0,0
206,107292,-9369,0,0
207,107812,-10410,0,0
208,108333,-11051,0,0
209,108854,-11268,0,0
210,109375,-11051,0,0
211,109896,-10410,0,0
212,110417,-9369,0,0
213,110938,-7967,0,0
214,111458,-6260,0,0
215,111979,-4312,0,0
216,112500,-2198,0,0
217,113021,0,0,0
218,113542,2198,0,0
219,114062,4312,0,0
220,114583,6260,0,0
221,115104,7967,0,0
222,115625,9369,0,0
223,116146,10410,0,0
224,116667,11051,0,0
225,117188,11268,0,0
226,117708,11051,0,0
227,118229,10410,0,0
228,118750,9369,0,0
229,119271,7967,0,0
230,119792,6260,0,0
231,120312,4312,0,0
232,120833,2198,0,0
233,121354,0,0,0
234,121875,-2198,0,0
235,122396,-4312,0,0
236,122917,-6260,0,0
237,123438,-7967,0,0
238,123958,-9369,0,0
239,124479,-10410,0,0
240,125000,-11051,0,0
241,125521,-11268,0,0
242,126042,-11051,0,0
243,126563,-10410,0,0
244,127083,-9369,0,0
245,127604,-7967,0,0
246,128125,-6260,0,0
247,128646,-4312,0,0
248,129167,-2198,0,0
249,129688,0,0,0
250,130208,2198,0,0
251,130729,4312,0,0
252,131250,6260,0,0
253,131771,7967,0,0
254,132292,9369,0,0
255,132812,10410,0,0
256,133333,11051,0,0
257,133854,11268,0,0
258,134375,11051,0,0
259,134896,10410,0,0
260,135417,9369,0,0
261,135938,7967,0,0
262,136458,6260,0,0
263,136979,4312,0,0
264,137500,2198,0,0
265,138021,0,0,0
266,138542,-2198,0,0
267,139062,-4312,0,0
268,139583,-6260,0,0
269,140104,-7967,0,0
270,140625,-9369,0,0
271,141146,-10410,0,0
272,141667,-11051,0,0
273,142188,-11268,0,0
274,142708,-11051,0,0
275,143229,-10410,0,0
276,143750,-9369,0,0
277,144271,-7967,0,0
278,144792,-6260,0,0
279,145312,-4312,0,0
280,145833,-2198,0,0
281,146354,0,0,0
282,146875,2198,0,0
283,147396,4312,0,0
284,147917,6260,0,0
285,148438,7967,0,0
286,148958,9369,0,0
287,149479,10410,0,0
288,150000,11051,0,0
289,150521,11268,0,0
290,151042,11051,0,0
291,151562,10410,0,0
292,152083,9369,0,0
293,152604,7967,0,0
294,153125,6260,0,0
295,153646,4312,0,0
296,154167,2198,0,0
297,154688,0,0,0
298,155208,-2198,0,0
299,155729,-4312,0,0
300,156250,-6260,0,0
301,156771,-7967,0,0
302,157292,-9369,0,0
303,157812,-10410,0,0
304,158333,-11051,0,0
305,158854,-11268,0,0
306,159375,-11051,0,0
307,159896,-10410,0,0
308,160417,-9369,0,0
309,160938,-7967,0,0
310,161458,-6260,0,0
311,161979,-4312,0,0
312,162500,-2198,0,0
313,163021,0,0,0
314,163542,2198,0,0
315,164062,4312,0,0
316,164583,6260,0,0
317,165104,7967,0,0
318,165625,9369,0,0
319,166146,10410,0,0
320,166667,11051,0,0
321,167188,11268,0,0
322,167708,11051,0,0
323,168229,10410,0,0
324,168750,9369,0,0
325,169271,7967,0,0
326,169792,6260,0,0
327,170312,4312,0,0
328,170833,2198,0,0
329,171354,0,0,0
330,171875,-2198,0,0
331,172396,-4312,0,0
332,172917,-6260,0,0
333,173438,-7967,0,0
334,173958,-9369,0,0
335,174479,-10410,0,0
336,175000,-11051,0,0
337,175521,-11268,0,0
338,176042,-11051,0,0
339,176562,-10410,0,0
340,177083,-9369,0,0
341,177604,-7967,0,0
342,178125,-6260,0,0
343,178646,-4312,0,0
344,179167,-2198,0,0
345,179688,0,0,0
346,180208,2198,0,0
347,180729,4312,0,0
348,181250,6260,0,0
349,181771,7967,0,0
350,182292,9369,0,0
351,182812,10410,0,0
352,183333,11051,0,0
353,183854,11268,0,0
354,184375,11051,0,0
355,184896,10410,0,0
356,185417,9369,0,0
357,185938,7967,0,0
358,186458,6260,0,0
359,186979,4312,0,0
360,187500,2198,0,0
361,188021,0,0,0
362,188542,-2198,0,0
363,189062,-4312,0,0
364,189583,-6260,0,0
365,190104,-7967,0,0
366,190625,-9369,0,0
367,191146,-10410,0,0
368,191667,-11051,0,0
369,192188,-11268,0,0
370,192708,-11051,0,0
371,193229,-10410,0,0
372,193750,-9369,0,0
373,194271,-7967,0,0
374,194792,-6260,0,0
375,195312,-4312,0,0
376,195833,-2198,0,0
377,196354,0,0,0
378,196875,2198,0,0
379,197396,4312,0,0
380,197917,6260,0,0
381,198438,7967,0,0
382,198958,9369,0,0
383,199479,10410,0,0
384,200000,11051,0,0
385,200521,11268,0,0
386,201042,11051,0,0
387,201562,10410,0,0
388,202083,9369,0,0
389,202604,7967,0,0
390,203125,6260,0,0
391,203646,4312,0,0
392,204167,2198,0,0
393,204688,0,0,0
394,205208,-2198,0,0
395,205729,-4312,0,0
396,206250,-6260,0,0
397,206771,-7967,0,0
398,207292,-9369,0,0
399,207812,-10410,0,0
400,208333,-11051,0,0
401,208854,-11268,0,0
402,209375,-11051,0,0
403,209896,-10410,0,0
404,210417,-9369,0,0
405,210938,-7967,0,0
406,211458,-6260,0,0
407,211979,-4312,0,0
408,212500,-2198,0,0
409,213021,0,0,0
410,213542,2198,0,0
411,214062,4312,0,0
412,214583,6260,0,0
413,215104,7967,0,0
414,215625,9369,0,0
415,216146,10410,0,0
416,216667,11051,0,0
417,217188,11268,0,0
418,217708,11051,0,0
419,218229,10410,0,0
420,218750,9369,0,0
421,219271,7967,0,0
422,219792,6260,0,0
423,220312,4312,0,0
424,220833,2198,0,0
425,221354,0,0,0
426,221875,-2198,0,0
427,222396,-4312,0,0
428,222917,-6260,0,0
429,223438,-7967,0,0
430,223958,-9369,0,0
431,224479,-10410,0,0
432,225000,-11051,0,0
433,225521,-11268,0,0
434,226042,-11051,0,0
435,226562,-10410,0,0
436,227083,-9369,0,0
437,227604,-7967,0,0
438,228125,-6260,0,0
439,228646,-4312,0,0
440,229167,-2198,0,0
441,229688,0,0,0
442,230208,2198,0,0
443,230729,4312,0,0
444,231250,6260,0,0
445,231771,7967,0,0
446,232292,9369,0,0
447,232812,10410,0,0
448,233333,11051,0,0
449,233854,11268,0,0
450,234375,11051,0,0
451,234896,10410,0,0
452,235417,9369,0,0
453,235938,7967,0,0
454,236458,6260,0,0
455,236979,4312,0,0
456,237500,2198,0,0
457,238021,0,0,0
458,238542,-2198,0,0
459,239062,-4312,0,0
460,239583,-6260,0,0
461,240104,-7967,0,0
462,240625,-9369,0,0
463,241146,-10410,0,0
464,241667,-11051,0,0
465,242188,-11268,0,0
466,242708,-11051,0,0
467,243229,-10410,0,0
468,243750,-9369,0,0
469,244271,-7967,0,0
470,244792,-6260,0,0
471,245312,-4312,0,0
472,245833,-2198,0,0
473,246354,0,0,0
474,246875,2198,0,0
475,247396,4312,0,0
476,247917,6260,0,0
477,248438,7967,0,0
478,248958,9369,0,0
479,249479,10410,0,0
480,250000,11051,0,0
481,250521,11268,0,0
482,251042,11051,0,0
483,251562,10410,0,0
484,252083,9369,0,0
485,252604,7967,0,0
486,253125,6260,0,0
487,253646,4312,0,0
488,254167,2198,0,0
489,254687,0,0,0
490,255208,-2198,0,0
491,255729,-4312,0,0
492,256250,-6260,0,0
493,256771,-7967,0,0
494,257292,-9369,0,0
495,257812,-10410,0,0
496,258333,-11051,0,0
497,258854,-11268,0,0
498,259375,-11051,0,0
499,259896,-10410,0,0
500,260417,-9369,0,0
501,260938,-7967,0,0
502,261458,-6260,0,0
503,261979,-4312,0,0
504,262500,-2198,0,0
505,263021,0,0,0
506,263542,2198,0,0
507,264062,4312,0,0
508,264583,6260,0,0
509,265104,7967,0,0
510,265625,9369,0,0
511,266146,10410,0,0
512,266667,11051,0,0
513,267188,11268,0,0
514,267708,11051,0,0
515,268229,10410,0,0
516,268750,9369,0,0
517,269271,7967,0,0
518,269792,6260,0,0
519,270312,4312,0,0
520,270833,2198,0,0
521,271354,0,0,0
522,271875,-2198,0,0
523,272396,-4312,0,0
524,272917,-6260,0,0
525,273438,-7967,0,0
526,273958,-9369,0,0
527,274479,-10410,0,0
528,275000,-11051,0,0
529,275521,-11268,0,0
530,276042,-11051,0,0
531,276562,-10410,0,0
532,277083,-9369,0,0
533,277604,-7967,0,0
534,278125,-6260,0,0
535,278646,-4312,0,0
536,279167,-2198,0,0
537,279688,0,0,0
538,280208,2198,0,0
539,280729,4312,0,0
540,281250,6260,0,0
541,281771,7967,0,0
542,282292,9369,0,0
543,282812,10410,0,0
544,283333,11051,0,0
545,283854,11268,0,0
546,284375,11051,0,0
547,284896,10410,0,0
548,285417,9369,0,0
549,285938,7967,0,0
550,286458,6260,0,0
551,286979,4312,0,0
552,287500,2198,0,0
553,288021,0,0,0
554,288542,-2198,0,0
555,289062,-4312,0,0
556,289583,-6260,0,0
557,290104,-7967,0,0
558,290625,-9369,0,0
559,291146,-10410,0,0
560,291667,-11051,0,0
561,292188,-11268,0,0
562,292708,-11051,0,0
563,293229,-10410,0,0
564,293750,-9369,0,0
565,294271,-7967,0,0
566,294792,-6260,0,0
567,295312,-4312,0,0
568,295833,-2198,0,0
569,296354,0,0,0
570,296875,2198,0,0
571,297396,4312,0,0
572,297917,6260,0,0
573,298438,7967,0,0
574,298958,9369,0,0
575,299479,10410,0,0
576,300000,11051,0,0
577,300521,11268,0,0
578,301042,11051,0,0
579,301562,10410,0,0
580,302083,9369,0,0
581,302604,7967,0,0
582,303125,6260,0,0
583,303646,4312,0,0
584,304167,2198,0,0
585,304688,0,0,0
586,305208,-2198,0,0
587,305729,-4312,0,0
588,306250,-6260,0,0
589,306771,-7967,0,0
590,307292,-9369,0,0
591,307812,-10410,0,0
592,308333,-11051,0,0
593,308854,-11268,0,0
594,309375,-11051,0,0
595,309896,-10410,0,0
596,310417,-9369,0,0
597,310938,-7967,0,0
598,311458,-6260,0,0
599,311979,-4312,0,0
600,312500,-2198,0,0
601,313021,0,0,0
602,313542,2198,0,0
603,314062,4312,0,0
604,314583,6260,0,0
605,315104,7967,0,0
606,315625,9369,0,0
607,316146,10410,0,0
608,316667,11051,0,0
609,317188,11268,0,0
610,317708,11051,0,0
611,318229,10410,0,0
612,318750,9369,0,0
613,319271,7967,0,0
614,319792,6260,0,0
615,320312,4312,0,0
616,320833,2198,0,0
617,321354,0,0,0
618,321875,-2198,0,0
619,322396,-4312,0,0
620,322917,-6260,0,0
621,323438,-7967,0,0
622,323958,-9369,0,0
623,324479,-10410,0,0
624,325000,-11051,0,0
625,325521,-11268,0,0
626,326042,-11051,0,0
627,326562,-10410,0,0
628,327083,-9369,0,0
629,327604,-7967,0,0
630,328125,-6260,0,0
631,328646,-4312,0,0
632,329167,-2198,0,0
633,329688,0,0,0
634,330208,2198,0,0
635,330729,4312,0,0
636,331250,6260,0,0
637,331771,7967,0,0
638,332292,9369,0,0
639,332812,10410,0,0
640,333333,11051,0,0
641,333854,11268,0,0
642,334375,11051,0,0
643,334896,10410,0,0
644,335417,9369,0,0
645,335938,7967,0,0
646,336458,6260,0,0
647,336979,4312,0,0
648,337500,2198,0,0
649,338021,0,0,0
650,338542,-2198,0,0
651,339062,-4312,0,0
652,339583,-6260,0,0
653,340104,-7967,0,0
654,340625,-9369,0,0
655,341146,-10410,0,0
656,341667,-11051,0,0
657,342188,-11268,0,0
658,342708,-11051,0,0
659,343229,-10410,0,0
660,343750,-9369,0,0
661,344271,-7967,0,0
662,344792,-6260,0,0
663,345312,-4312,0,0
664,345833,-2198,0,0
665,346354,0,0,0
666,346875,2198,0,0
667,347396,4312,0,0
668,347917,6260,0,0
669,348438,7967,0,0
670,348958,9369,0,0
671,349479,10410,0,0
672,350000,11051,0,0
673,350521,11268,0,0
674,351042,11051,0,0
675,351562,10410,0,0
676,352083,9369,0,0
677,352604,7967,0,0
678,353125,6260,0,0
679,353646,4312,0,0
680,354167,2198,0,0
681,354688,0,0,0
682,355208,-2198,0,0
683,355729,-4312,0,0
684,356250,-6260,0,0
685,356771,-7967,0,0
686,357292,-9369,0,0
687,357812,-10410,0,0
688,358333,-11051,0,0
689,358854,-11268,0,0
690,359375,-11051,0,0
691,359896,-10410,0,0
692,360417,-9369,0,0
693,360938,-7967,0,0
694,361458,-6260,0,0
695,361979,-4312,0,0
696,362500,-2198,0,0
697,363021,0,0,0
698,363542,2198,0,0
699,364062,4312,0,0
700,364583,6260,0,0
701,365104,7967,0,0
702,365625,9369,0,0
703,366146,10410,0,0
704,366667,11051,0,0
705,367188,11268,0,0
706,367708,11051,0,0
707,368229,10410,0,0
708,368750,9369,0,0
709,369271,7967,0,0
710,369792,6260,0,0
711,370312,4312,0,0
712,370833,2198,0,0
713,371354,0,0,0
714,371875,-2198,0,0
715,372396,-4312,0,0
716,372917,-6260,0,0
717,373438,-7967,0,0
718,373958,-9369,0,0
719,374479,-10410,0,0
720,375000,-11051,0,0
721,375521,-11268,0,0
722,376042,-11051,0,0
723,376562,-10410,0,0
724,377083,-9369,0,0
725,377604,-7967,0,0
726,378125,-6260,0,0
727,378646,-4312,0,0
728,379167,-2198,0,0
729,379688,0,0,0
730,380208,2198,0,0
731,380729,4312,0,0
732,381250,6260,0,0
733,381771,7967,0,0
734,382292,9369,0,0
735,382812,10410,0,0
736,383333,11051,0,0
737,383854,11268,0,0
738,384375,11051,0,0
739,384896,10410,0,0
740,385417,9369,0,0
741,385938,7967,0,0
742,386458,6260,0,0
743,386979,4312,0,0
744,387500,2198,0,0
745,388021,0,0,0
746,388542,-2198,0,0
747,389062,-4312,0,0
748,389583,-6260,0,0
749,390104,-7967,0,0
750,390625,-9369,0,0
751,391146,-10410,0,0
752,391667,-11051,0,0
753,392188,-11268,0,0
754,392708,-11051,0,0
755,393229,-10410,0,0
756,393750,-9369,0,0
757,394271,-7967,0,0
758,394792,-6260,0,0
759,395312,-4312,0,0
760,395833,-2198,0,0
761,396354,0,0,0
762,396875,2198,0,0
763,397396,4312,0,0
764,397917,6260,0,0
765,398438,7967,0,0
766,398958,9369,0,0
767,399479,10410,0,0
768,400000,11051,0,0
769,400521,11268,0,0
770,401042,11051,0,0
771,401562,10410,0,0
772,402083,9369,0,0
773,402604,7967,0,0
774,403125,6260,0,0
775,403646,4312,0,0
776,404167,2198,0,0
777,404688,0,0,0
778,405208,-2198,0,0
779,405729,-4312,0,0
780,406250,-6260,0,0
781,406771,-7967,0,0
782,407292,-9369,0,0
783,407812,-10410,0,0
784,408333,-11051,0,0
785,408854,-11268,0,0
786,409375,-11051,0,0
787,409896,-10410,0,0
788,410417,-9369,0,0
789,410938,-7967,0,0
790,411458,-6260,0,0
791,411979,-4312,0,0
792,412500,-2198,0,0
793,413021,0,0,0
794,413542,2198,0,0
795,414062,4312,0,0
796,414583,6260,0,0
797,415104,7967,0,0
798,415625,9369,0,0
799,416146,10410,0,0
800,416667,11051,0,0
801,417188,11268,0,0
802,417708,11051,0,0
803,418229,10410,0,0
804,418750,9369,0,0
805,419271,7967,0,0
806,419792,6260,0,0
807,420312,4312,0,0
808,420833,2198,0,0
809,421354,0,0,0
810,421875,-2198,0,0
811,422396,-4312,0,0
812,422917,-6260,0,0
813,423438,-7967,0,0
814,423958,-9369,0,0
815,424479,-10410,0,0
816,425000,-11051,0,0
817,425521,-11268,0,0
818,426042,-11051,0,0
819,426562,-10410,0,0
820,427083,-9369,0,0
821,427604,-7967,0,0
822,428125,-6260,0,0
823,428646,-4312,0,0
824,429167,-2198,0,0
825,429688,0,0,0
826,430208,2198,0,0
827,430729,4312,0,0
828,431250,6260,0,0
829,431771,7967,0,0
830,432292,9369,0,0
831,432812,10410,0,0
832,433333,11051,0,0
833,433854,11268,0,0
834,434375,11051,0,0
835,434896,10410,0,0
836,435417,9369,0,0
837,435938,7967,0,0
838,436458,6260,0,0
839,436979,4312,0,0
840,437500,2198,0,0
841,438021,0,0,0
842,438542,-2198,0,0
843,439062,-4312,0,0
844,439583,-6260,0,0
845,440104,-7967,0,0
846,440625,-9369,0,0
847,441146,-10410,0,0
848,441667,-11051,0,0
849,442188,-11268,0,0
850,442708,-11051,0,0
851,443229,-10410,0,0
852,443750,-9369,0,0
853,444271,-7967,0,0
854,444792,-6260,0,0
855,445312,-4312,0,0
856,445833,-2198,0,0
857,446354,0,0,0
858,446875,2198,0,0
859,447396,4312,0,0
860,447917,6260,0,0
861,448438,7967,0,0
862,448958,9369,0,0
863,449479,10410,0,0
864,450000,11051,0,0
865,450521,11268,0,0
866,451042,11051,0,0
867,451562,10410,0,0
868,452083,9369,0,0
869,452604,7967,0,0
870,453125,6260,0,0
871,453646,4312,0,0
872,454167,2198,0,0
873,454688,0,0,0
874,455208,-2198,0,0
875,455729,-4312,0,0
876,456250,-6260,0,0
877,456771,-7967,0,0
878,457292,-9369,0,0
879,457812,-10410,0,0
880,458333,-11051,0,0
881,458854,-11268,0,0
882,459375,-11051,0,0
883,459896,-10410,0,0
884,460417,-9369,0,0
885,460938,-7967,0,0
886,461458,-6260,0,0
887,461979,-4312,0,0
888,462500,-2198,0,0
889,463021,0,0,0
890,463542,2198,0,0
891,464062,4312,0,0
892,464583,6260,0,0
893,465104,7967,0,0
894,465625,9369,0,0
895,466146,10410,0,0
896,466667,11051,0,0
897,467188,11268,0,0
898,467708,11051,0,0
899,468229,10410,0,0
900,468750,9369,0,0
901,469271,7967,0,0
902,469792,6260,0,0
903,470312,4312,0,0
904,470833,2198,0,0
905,471354,0,0,0
906,471875,-2198,0,0
907,472396,-4312,0,0
908,472917,-6260,0,0
909,473438,-7967,0,0
910,473958,-9369,0,0
911,474479,-10410,0,0
912,475000,-11051,0,0
913,475521,-11268,0,0
914,476042,-11051,0,0
915,476562,-10410,0,0
916,477083,-9369,0,0
917,477604,-7967,0,0
918,478125,-6260,0,0
919,478646,-4312,0,0
920,479167,-2198,0,0
921,479688,0,0,0
922,480208,2198,0,0
923,480729,4312,0,0
924,481250,6260,0,0
925,481771,7967,0,0
926,482292,9369,0,0
927,482812,10410,0,0
928,483333,11051,0,0
929,483854,11268,0,0
930,484375,11051,0,0
931,484896,10410,0,0
932,485417,9369,0,0
933,485938,7967,0,0
934,486458,6260,0,0
935,486979,4312,0,0
936,487500,2198,0,0
937,488021,0,0,0
938,488542,-2198,0,0
939,489062,-4312,0,0
940,489583,-6260,0,0
